!Keysight Technologies,P9371A,MY57212015,A.15.65.19
!Date: Thursday, October 27, 2022 14:34:34
!Correction: S11(C  1-Port  ) 
!S1P File: Measurement: S11:
# Hz S  dB   R 50
700000000 -0.7303769 84.636253
700500000 -0.73383272 84.32354
701000000 -0.73125201 84.030975
701500000 -0.73110712 83.681366
702000000 -0.73534131 83.418427
702500000 -0.73790234 83.098503
703000000 -0.7381435 82.802864
703500000 -0.73952836 82.450752
704000000 -0.7411449 82.161499
704500000 -0.74298376 81.897675
705000000 -0.74407828 81.517715
705500000 -0.74804133 81.244186
706000000 -0.74761939 80.901711
706500000 -0.75585032 80.631523
707000000 -0.74947858 80.300537
707500000 -0.74932259 79.988556
708000000 -0.75344002 79.705612
708500000 -0.75311798 79.39563
709000000 -0.75636023 79.07473
709500000 -0.75718015 78.766518
710000000 -0.75521511 78.448326
710500000 -0.7644515 78.157532
711000000 -0.760575 77.814507
711500000 -0.76223791 77.493591
712000000 -0.76315343 77.230377
712500000 -0.76921427 76.913811
713000000 -0.765248 76.575272
713500000 -0.77107316 76.255508
714000000 -0.76596522 75.955765
714500000 -0.76510596 75.65905
715000000 -0.77628422 75.345375
715500000 -0.77462798 75.022011
716000000 -0.77443087 74.704926
716500000 -0.7757293 74.421555
717000000 -0.77651453 74.132866
717500000 -0.77164572 73.808624
718000000 -0.78069502 73.467407
718500000 -0.78640473 73.172379
719000000 -0.78082454 72.858871
719500000 -0.78236657 72.551346
720000000 -0.78410178 72.209747
720500000 -0.79203033 71.909271
721000000 -0.79698175 71.55912
721500000 -0.78939062 71.267715
722000000 -0.79301083 70.992615
722500000 -0.79201758 70.660484
723000000 -0.79357356 70.339539
723500000 -0.79695314 70.037727
724000000 -0.79956257 69.728241
724500000 -0.80172992 69.424484
725000000 -0.80138278 69.142166
725500000 -0.80261111 68.802856
726000000 -0.80444258 68.495255
726500000 -0.804932 68.160301
727000000 -0.80583566 67.842201
727500000 -0.80358779 67.542389
728000000 -0.80937791 67.220345
728500000 -0.80944997 66.908203
729000000 -0.81034112 66.615326
729500000 -0.81452715 66.26754
730000000 -0.81857783 65.962631
730500000 -0.81616402 65.67971
731000000 -0.81820184 65.35408
731500000 -0.82261664 65.009392
732000000 -0.82452697 64.727242
732500000 -0.82215363 64.390289
733000000 -0.82741392 64.088135
733500000 -0.82699358 63.753212
734000000 -0.82392389 63.441265
734500000 -0.82864457 63.101585
735000000 -0.83186126 62.820713
735500000 -0.83929121 62.510567
736000000 -0.83578694 62.162537
736500000 -0.83684486 61.852253
737000000 -0.83652002 61.564476
737500000 -0.83764154 61.222263
738000000 -0.83881384 60.955135
738500000 -0.84723943 60.64687
739000000 -0.84795243 60.330227
739500000 -0.84356529 59.983433
740000000 -0.84720701 59.666008
740500000 -0.8497653 59.299587
741000000 -0.85440677 59.040287
741500000 -0.85499167 58.706043
742000000 -0.85717678 58.419319
742500000 -0.85810524 58.092728
743000000 -0.85961348 57.725582
743500000 -0.85756373 57.444092
744000000 -0.85850489 57.143688
744500000 -0.8588708 56.810745
745000000 -0.85905129 56.482296
745500000 -0.86189526 56.188656
746000000 -0.86679369 55.860519
746500000 -0.86392528 55.539738
747000000 -0.8633619 55.24213
747500000 -0.86988854 54.940063
748000000 -0.86919725 54.585712
748500000 -0.86951184 54.279747
749000000 -0.8730998 53.916969
749500000 -0.87053442 53.594086
750000000 -0.87752324 53.312153
750500000 -0.87419981 53.00433
751000000 -0.87628657 52.656147
751500000 -0.8753314 52.320889
752000000 -0.87770194 52.007557
752500000 -0.87902081 51.653137
753000000 -0.88022727 51.327843
753500000 -0.87714434 51.081841
754000000 -0.88280314 50.679047
754500000 -0.88121742 50.377033
755000000 -0.88217479 50.069046
755500000 -0.88152725 49.709713
756000000 -0.88663131 49.442574
756500000 -0.88626373 49.074642
757000000 -0.8893289 48.75156
757500000 -0.89638788 48.452362
758000000 -0.8910743 48.089592
758500000 -0.89576077 47.782845
759000000 -0.90089536 47.423801
759500000 -0.89526767 47.123631
760000000 -0.89450008 46.773304
760500000 -0.90419471 46.477985
761000000 -0.9014796 46.152557
761500000 -0.90093547 45.785275
762000000 -0.90692109 45.460808
762500000 -0.9032324 45.127766
763000000 -0.90788323 44.766518
763500000 -0.91604406 44.469448
764000000 -0.90993005 44.123417
764500000 -0.91403782 43.815472
765000000 -0.91360235 43.463364
765500000 -0.92271638 43.093533
766000000 -0.9190616 42.798206
766500000 -0.92233992 42.451862
767000000 -0.92875481 42.122059
767500000 -0.92872214 41.795193
768000000 -0.92964166 41.444901
768500000 -0.93514937 41.119495
769000000 -0.93471628 40.763664
769500000 -0.93969148 40.427727
770000000 -0.94267952 40.115322
770500000 -0.94504017 39.764114
771000000 -0.94609088 39.385193
771500000 -0.95157671 39.129269
772000000 -0.95529085 38.794968
772500000 -0.95921832 38.424023
773000000 -0.96543068 38.07233
773500000 -0.96497291 37.752739
774000000 -0.96563858 37.430283
774500000 -0.97220457 37.131222
775000000 -0.9795236 36.746632
775500000 -0.98028749 36.431992
776000000 -0.98121572 36.085106
776500000 -0.99077499 35.734955
777000000 -0.99312681 35.435524
777500000 -0.99477512 35.098282
778000000 -0.99641949 34.769573
778500000 -1.0040593 34.409599
779000000 -1.0075003 34.045597
779500000 -1.0057616 33.756397
780000000 -1.0144638 33.391735
780500000 -1.019635 33.085072
781000000 -1.0234036 32.761894
781500000 -1.0296655 32.411934
782000000 -1.0312985 32.087063
782500000 -1.0376359 31.738455
783000000 -1.0446601 31.399137
783500000 -1.0466157 31.071928
784000000 -1.0513372 30.754562
784500000 -1.0594605 30.437757
785000000 -1.0609779 30.081297
785500000 -1.067469 29.740427
786000000 -1.0705626 29.423082
786500000 -1.0770752 29.104445
787000000 -1.0798626 28.75901
787500000 -1.0830002 28.436808
788000000 -1.0873193 28.096666
788500000 -1.0970262 27.795538
789000000 -1.0979375 27.480829
789500000 -1.1041089 27.153179
790000000 -1.1012739 26.820021
790500000 -1.1165082 26.475529
791000000 -1.1170803 26.15938
791500000 -1.1242887 25.826115
792000000 -1.1252887 25.507418
792500000 -1.1328773 25.164833
793000000 -1.136727 24.869762
793500000 -1.141987 24.52636
794000000 -1.1497104 24.200102
794500000 -1.1564322 23.870697
795000000 -1.1573282 23.539019
795500000 -1.1599278 23.243557
796000000 -1.1696479 22.900242
796500000 -1.171924 22.588755
797000000 -1.1762928 22.26383
797500000 -1.1756693 21.941574
798000000 -1.1785047 21.648016
798500000 -1.1955377 21.292103
799000000 -1.1964089 21.039949
799500000 -1.2051339 20.677372
800000000 -1.2019117 20.36602
800500000 -1.2108322 20.0464
801000000 -1.2118425 19.734735
801500000 -1.2143275 19.427641
802000000 -1.2206728 19.113119
802500000 -1.2252251 18.736917
803000000 -1.227796 18.459139
803500000 -1.232396 18.174545
804000000 -1.2397499 17.837107
804500000 -1.2432384 17.527981
805000000 -1.2498223 17.203627
805500000 -1.2476351 16.887396
806000000 -1.2557275 16.588032
806500000 -1.2576998 16.286224
807000000 -1.2579077 15.958111
807500000 -1.2631199 15.620854
808000000 -1.264173 15.350099
808500000 -1.2735411 15.058406
809000000 -1.2726094 14.75695
809500000 -1.2724872 14.437975
810000000 -1.2732774 14.135675
810500000 -1.2713873 13.837928
811000000 -1.2773019 13.539624
811500000 -1.2813047 13.210738
812000000 -1.2832937 12.916926
812500000 -1.2830248 12.574757
813000000 -1.2850767 12.292881
813500000 -1.2854763 11.971757
814000000 -1.2841234 11.657825
814500000 -1.2811723 11.339505
815000000 -1.2818712 11.039045
815500000 -1.2863789 10.744665
816000000 -1.283963 10.378954
816500000 -1.2759907 10.079496
817000000 -1.2794884 9.7977438
817500000 -1.2718706 9.4653606
818000000 -1.2725878 9.137495
818500000 -1.2697282 8.8150682
819000000 -1.2718453 8.4911375
819500000 -1.264333 8.1583271
820000000 -1.2619212 7.8088694
820500000 -1.2616888 7.4817133
821000000 -1.2617799 7.1456556
821500000 -1.2579627 6.832027
822000000 -1.2560323 6.4780741
822500000 -1.253062 6.1383481
823000000 -1.2497795 5.816493
823500000 -1.2517139 5.4589324
824000000 -1.2460583 5.1319566
824500000 -1.2484852 4.7927904
825000000 -1.2435935 4.4573536
825500000 -1.2410738 4.1269355
826000000 -1.2425951 3.7713795
826500000 -1.2425492 3.4303515
827000000 -1.2425534 3.0742311
827500000 -1.2376121 2.6965506
828000000 -1.2403377 2.3618844
828500000 -1.2418373 2.0059135
829000000 -1.2325362 1.6793908
829500000 -1.2333381 1.3190218
830000000 -1.2345562 0.99030447
830500000 -1.2315365 0.61033964
831000000 -1.231903 0.26774162
831500000 -1.2283716 -0.10460788
832000000 -1.2244934 -0.43351316
832500000 -1.2217015 -0.81473798
833000000 -1.2207503 -1.1492881
833500000 -1.2217715 -1.5145099
834000000 -1.2210119 -1.8684745
834500000 -1.2158195 -2.2660964
835000000 -1.2162225 -2.6134934
835500000 -1.2179499 -2.9440629
836000000 -1.217216 -3.3125801
836500000 -1.2145815 -3.6440609
837000000 -1.2124232 -4.0581708
837500000 -1.2172698 -4.418705
838000000 -1.2101607 -4.7821903
838500000 -1.2068042 -5.1384654
839000000 -1.2071351 -5.5216179
839500000 -1.2049074 -5.8807449
840000000 -1.2020793 -6.2517424
840500000 -1.2042894 -6.6562886
841000000 -1.199901 -6.9801469
841500000 -1.1994103 -7.3760538
842000000 -1.1996716 -7.7415113
842500000 -1.2026341 -8.1159363
843000000 -1.1977197 -8.50741
843500000 -1.1992121 -8.8818636
844000000 -1.1928864 -9.2514858
844500000 -1.1943676 -9.6412268
845000000 -1.197044 -10.011212
845500000 -1.193254 -10.352148
846000000 -1.1987007 -10.748761
846500000 -1.1936152 -11.165245
847000000 -1.1934111 -11.525626
847500000 -1.1959724 -11.892123
848000000 -1.1939352 -12.310475
848500000 -1.195773 -12.696764
849000000 -1.1918911 -13.061805
849500000 -1.1938121 -13.503222
850000000 -1.1901349 -13.83707
850500000 -1.1971215 -14.228193
851000000 -1.1921915 -14.611133
851500000 -1.1936851 -14.970069
852000000 -1.1931852 -15.380367
852500000 -1.1949521 -15.751122
853000000 -1.1922106 -16.17605
853500000 -1.1957521 -16.54184
854000000 -1.1969496 -16.933638
854500000 -1.1950711 -17.309511
855000000 -1.1930302 -17.729359
855500000 -1.188681 -18.125555
856000000 -1.1867428 -18.505352
856500000 -1.188211 -18.9025
857000000 -1.1875614 -19.266472
857500000 -1.1910729 -19.685656
858000000 -1.1907175 -20.07309
858500000 -1.1928953 -20.516861
859000000 -1.1874005 -20.883217
859500000 -1.1858817 -21.273882
860000000 -1.1835297 -21.713388
860500000 -1.1885179 -22.11474
861000000 -1.191808 -22.531574
861500000 -1.1871401 -22.912855
862000000 -1.1852584 -23.311096
862500000 -1.1881436 -23.73501
863000000 -1.187152 -24.171566
863500000 -1.1800462 -24.556219
864000000 -1.1888968 -24.988703
864500000 -1.1846701 -25.370159
865000000 -1.1862535 -25.806942
865500000 -1.1854509 -26.248755
866000000 -1.1878495 -26.667906
866500000 -1.1865839 -27.087458
867000000 -1.1867874 -27.504646
867500000 -1.1881497 -27.912283
868000000 -1.1846336 -28.326477
868500000 -1.1894264 -28.733835
869000000 -1.1865686 -29.155813
869500000 -1.1905291 -29.628893
870000000 -1.1892627 -30.043787
870500000 -1.1878411 -30.455975
871000000 -1.1909735 -30.893049
871500000 -1.1904621 -31.35441
872000000 -1.1855723 -31.766665
872500000 -1.184316 -32.225712
873000000 -1.1854719 -32.701027
873500000 -1.1901621 -33.106998
874000000 -1.1915689 -33.513824
874500000 -1.1858004 -34.010254
875000000 -1.1932635 -34.416744
875500000 -1.1918386 -34.88443
876000000 -1.1953629 -35.333157
876500000 -1.1936581 -35.759834
877000000 -1.1945475 -36.252922
877500000 -1.1922674 -36.671227
878000000 -1.2023309 -37.123432
878500000 -1.2008982 -37.597954
879000000 -1.2032211 -38.012272
879500000 -1.2021332 -38.503643
880000000 -1.2078813 -38.952061
880500000 -1.2077373 -39.432804
881000000 -1.2118692 -39.894779
881500000 -1.2136897 -40.354485
882000000 -1.2168363 -40.796093
882500000 -1.2152817 -41.277733
883000000 -1.2237271 -41.729721
883500000 -1.2181551 -42.168907
884000000 -1.2271448 -42.649082
884500000 -1.2259841 -43.152416
885000000 -1.2276555 -43.596027
885500000 -1.2271549 -44.074738
886000000 -1.2319411 -44.561283
886500000 -1.2300982 -45.033123
887000000 -1.2359654 -45.534565
887500000 -1.2396493 -45.959389
888000000 -1.2447048 -46.419121
888500000 -1.2479517 -46.947506
889000000 -1.2463626 -47.421623
889500000 -1.248183 -47.893433
890000000 -1.2585496 -48.408203
890500000 -1.2547632 -48.878654
891000000 -1.2517236 -49.340595
891500000 -1.2608247 -49.858387
892000000 -1.2612731 -50.334328
892500000 -1.258625 -50.864616
893000000 -1.2659341 -51.359184
893500000 -1.2688738 -51.867115
894000000 -1.2639282 -52.383533
894500000 -1.2709767 -52.868111
895000000 -1.2736095 -53.378284
895500000 -1.2752925 -53.884647
896000000 -1.2784832 -54.407265
896500000 -1.2840465 -54.946903
897000000 -1.2840009 -55.45327
897500000 -1.2875531 -55.973579
898000000 -1.2872909 -56.489319
898500000 -1.2872829 -57.008381
899000000 -1.2945024 -57.547146
899500000 -1.2964041 -58.077393
900000000 -1.3047017 -58.604069
900500000 -1.3060229 -59.153122
901000000 -1.3086571 -59.728714
901500000 -1.3093439 -60.251167
902000000 -1.320425 -60.800617
902500000 -1.323192 -61.306236
903000000 -1.3240687 -61.881397
903500000 -1.3295512 -62.447273
904000000 -1.330514 -62.971523
904500000 -1.3374647 -63.558872
905000000 -1.3416313 -64.097946
905500000 -1.3469807 -64.676147
906000000 -1.3476557 -65.223167
906500000 -1.3591017 -65.797173
907000000 -1.3616624 -66.337418
907500000 -1.3615918 -66.926193
908000000 -1.3673546 -67.5019
908500000 -1.3696296 -68.080688
909000000 -1.3748257 -68.649902
909500000 -1.3811166 -69.25264
910000000 -1.3868121 -69.83474
910500000 -1.3897945 -70.425163
911000000 -1.3916546 -71.027153
911500000 -1.3998437 -71.596878
912000000 -1.405665 -72.197029
912500000 -1.4054278 -72.774796
913000000 -1.4134121 -73.443512
913500000 -1.4192946 -74.032234
914000000 -1.4233702 -74.650986
914500000 -1.4263175 -75.26387
915000000 -1.4344717 -75.88443
915500000 -1.4363756 -76.520424
916000000 -1.4446532 -77.126556
916500000 -1.4464828 -77.747429
917000000 -1.4542516 -78.400002
917500000 -1.4607899 -79.03241
918000000 -1.465032 -79.682037
918500000 -1.4699256 -80.331451
919000000 -1.4802754 -80.942703
919500000 -1.4844739 -81.618027
920000000 -1.4894354 -82.295509
920500000 -1.4944998 -82.943657
921000000 -1.5001259 -83.625725
921500000 -1.5037636 -84.270309
922000000 -1.5117171 -84.965034
922500000 -1.5201101 -85.636169
923000000 -1.522908 -86.333778
923500000 -1.5324606 -87.026649
924000000 -1.5370473 -87.714203
924500000 -1.5461838 -88.407822
925000000 -1.5516368 -89.114159
925500000 -1.5564431 -89.821022
926000000 -1.5659877 -90.530121
926500000 -1.5704265 -91.244347
927000000 -1.5807648 -91.985428
927500000 -1.5856426 -92.696617
928000000 -1.5889711 -93.443733
928500000 -1.5964718 -94.171982
929000000 -1.6052012 -94.91925
929500000 -1.6159488 -95.639748
930000000 -1.6205226 -96.390953
930500000 -1.6260002 -97.165337
931000000 -1.6381395 -97.943802
931500000 -1.6431438 -98.691742
932000000 -1.652702 -99.491081
932500000 -1.6607132 -100.26536
933000000 -1.6697048 -101.01865
933500000 -1.6781101 -101.82736
934000000 -1.6878995 -102.6432
934500000 -1.6933614 -103.40852
935000000 -1.7050785 -104.22907
935500000 -1.7132292 -105.05753
936000000 -1.7207793 -105.87794
936500000 -1.7327231 -106.6907
937000000 -1.7399099 -107.51323
937500000 -1.7455668 -108.35945
938000000 -1.75508 -109.1953
938500000 -1.7660141 -110.07006
939000000 -1.7780032 -110.89175
939500000 -1.7857653 -111.76994
940000000 -1.7949803 -112.64951
940500000 -1.8057753 -113.5423
941000000 -1.8149331 -114.41603
941500000 -1.8279769 -115.29403
942000000 -1.8389133 -116.21024
942500000 -1.8463601 -117.08373
943000000 -1.855966 -117.99323
943500000 -1.8684901 -118.91044
944000000 -1.8730097 -119.78452
944500000 -1.8902862 -120.74653
945000000 -1.9000596 -121.70784
945500000 -1.9059592 -122.66216
946000000 -1.9219074 -123.59756
946500000 -1.930714 -124.56825
947000000 -1.9432843 -125.50743
947500000 -1.9556303 -126.48882
948000000 -1.9701459 -127.46293
948500000 -1.9800061 -128.45432
949000000 -1.9926361 -129.44936
949500000 -2.0028279 -130.43802
950000000 -2.0109389 -131.44911
950500000 -2.0212362 -132.45877
951000000 -2.0408669 -133.48965
951500000 -2.0465152 -134.53305
952000000 -2.0577619 -135.53748
952500000 -2.0698283 -136.60847
953000000 -2.0815108 -137.66206
953500000 -2.0976918 -138.70717
954000000 -2.1086922 -139.79616
954500000 -2.1190794 -140.86295
955000000 -2.1330924 -141.9503
955500000 -2.1447563 -143.03448
956000000 -2.1541631 -144.13248
956500000 -2.1693892 -145.25592
957000000 -2.1817737 -146.34853
957500000 -2.1902502 -147.48376
958000000 -2.2056036 -148.61563
958500000 -2.21876 -149.77295
959000000 -2.2319455 -150.9039
959500000 -2.2432768 -152.04857
960000000 -2.2561502 -153.22533
960500000 -2.2685587 -154.38286
961000000 -2.2787051 -155.56641
961500000 -2.2904048 -156.72792
962000000 -2.3041677 -157.9194
962500000 -2.3215613 -159.12997
963000000 -2.3279402 -160.35968
963500000 -2.3388882 -161.57996
964000000 -2.3509734 -162.76108
964500000 -2.3627183 -163.96948
965000000 -2.368536 -165.22148
965500000 -2.3856087 -166.47565
966000000 -2.3921623 -167.70818
966500000 -2.4045117 -168.97105
967000000 -2.4151034 -170.2267
967500000 -2.4319787 -171.50134
968000000 -2.4447997 -172.77502
968500000 -2.4453938 -174.03333
969000000 -2.4601908 -175.33324
969500000 -2.4714758 -176.60475
970000000 -2.4735842 -177.93224
970500000 -2.4831924 -179.2204
971000000 -2.4968584 179.47002
971500000 -2.5042748 178.13211
972000000 -2.5163474 176.82449
972500000 -2.5211661 175.48871
973000000 -2.535743 174.18784
973500000 -2.5389221 172.81834
974000000 -2.5505583 171.48004
974500000 -2.5547988 170.1687
975000000 -2.5656915 168.81859
975500000 -2.5735111 167.4709
976000000 -2.5796242 166.09145
976500000 -2.5856919 164.74158
977000000 -2.5884554 163.40921
977500000 -2.5961721 162.04721
978000000 -2.6033008 160.66901
978500000 -2.6112089 159.28407
979000000 -2.6163819 157.92595
979500000 -2.618484 156.55612
980000000 -2.6177235 155.18388
980500000 -2.6284437 153.80209
981000000 -2.6309466 152.43584
981500000 -2.6344066 151.06445
982000000 -2.639106 149.69252
982500000 -2.6391184 148.28464
983000000 -2.6433208 146.90051
983500000 -2.6488209 145.5605
984000000 -2.6453943 144.1619
984500000 -2.6452157 142.79109
985000000 -2.6484346 141.41028
985500000 -2.646841 140.03421
986000000 -2.6432695 138.65948
986500000 -2.6508322 137.29895
987000000 -2.6465793 135.94522
987500000 -2.6423094 134.54764
988000000 -2.6449997 133.23665
988500000 -2.6439674 131.85922
989000000 -2.643868 130.45636
989500000 -2.6416271 129.11409
990000000 -2.6352384 127.78295
990500000 -2.6291542 126.41763
991000000 -2.6347332 125.0836
991500000 -2.6242568 123.74409
992000000 -2.6197486 122.41221
992500000 -2.6174691 121.0582
993000000 -2.6144238 119.77234
993500000 -2.6034088 118.43574
994000000 -2.6045249 117.12493
994500000 -2.5974576 115.79099
995000000 -2.5907383 114.52085
995500000 -2.5850985 113.21562
996000000 -2.5824916 111.87657
996500000 -2.5734684 110.63384
997000000 -2.5661032 109.33282
997500000 -2.5543275 108.09018
998000000 -2.5500181 106.81165
998500000 -2.5441236 105.57376
999000000 -2.5426865 104.2802
999500000 -2.5255613 103.07619
1000000000 -2.5179677 101.82858
1000500000 -2.509742 100.60201
1001000000 -2.5045922 99.344269
1001500000 -2.4915736 98.147743
1002000000 -2.4833364 96.926079
1002500000 -2.4772089 95.746849
1003000000 -2.4635251 94.535858
1003500000 -2.4568994 93.347443
1004000000 -2.4495201 92.202599
1004500000 -2.4329524 91.036507
1005000000 -2.4241176 89.845619
1005500000 -2.4119892 88.695137
1006000000 -2.4069521 87.543335
1006500000 -2.3924663 86.387405
1007000000 -2.3830733 85.285263
1007500000 -2.3758159 84.172394
1008000000 -2.3608551 83.061409
1008500000 -2.3533595 81.939125
1009000000 -2.3437972 80.811134
1009500000 -2.3309994 79.73336
1010000000 -2.3155999 78.682434
1010500000 -2.30511 77.607826
1011000000 -2.2943223 76.527328
1011500000 -2.2868476 75.468971
1012000000 -2.273912 74.452576
1012500000 -2.2567396 73.366508
1013000000 -2.2478018 72.345612
1013500000 -2.2398574 71.310493
