!Keysight Technologies,P9371A,MY57212015,A.15.65.19
!Date: Monday, November 07, 2022 15:14:39
!Correction: S11(C  1-Port  ) 
!S1P File: Measurement: S11:
# Hz S  dB   R 50
750000000 -0.70884246 79.613678
750480769 -0.7125895 79.356422
750961538 -0.71358794 79.148842
751442307 -0.71606201 78.938446
751923076 -0.71538311 78.702469
752403845 -0.71787101 78.46817
752884614 -0.72211432 78.236
753365383 -0.71959865 78.047546
753846152 -0.72352928 77.809669
754326921 -0.72284007 77.524307
754807690 -0.72498596 77.342331
755288459 -0.72914869 77.075211
755769228 -0.72718281 76.854843
756249997 -0.73226303 76.638306
756730766 -0.73620206 76.443527
757211535 -0.74226934 76.207954
757692304 -0.73503745 75.971115
758173073 -0.74433392 75.758606
758653842 -0.742266 75.52507
759134611 -0.74621046 75.302132
759615380 -0.74818861 75.100899
760096149 -0.75191927 74.831985
760576918 -0.75420523 74.606155
761057687 -0.75560975 74.388618
761538456 -0.75319189 74.172348
762019225 -0.76154625 73.900215
762499994 -0.75979137 73.727173
762980763 -0.76329935 73.464005
763461532 -0.76979774 73.195145
763942301 -0.76603383 73.015205
764423070 -0.77728844 72.778366
764903839 -0.77837652 72.575081
765384608 -0.77378279 72.283493
765865377 -0.77834457 72.102684
766346146 -0.77802938 71.840141
766826915 -0.78658187 71.625786
767307684 -0.78420347 71.396027
767788453 -0.78621298 71.157623
768269222 -0.79278964 70.926598
768749991 -0.79571027 70.699112
769230760 -0.79754442 70.455406
769711529 -0.80080318 70.219696
770192298 -0.80305582 69.987396
770673067 -0.81412685 69.770233
771153836 -0.81148398 69.505394
771634605 -0.81105155 69.290359
772115374 -0.81865001 69.068619
772596143 -0.82117587 68.8451
773076912 -0.81344783 68.596764
773557681 -0.8207081 68.34687
774038450 -0.82082188 68.138901
774519219 -0.82656306 67.877197
774999988 -0.82722789 67.637161
775480757 -0.83032066 67.417564
775961526 -0.84031886 67.16404
776442295 -0.83726358 66.996429
776923064 -0.84569085 66.719536
777403833 -0.84199286 66.494331
777884602 -0.84498608 66.245651
778365371 -0.84868759 66.028717
778846140 -0.85018247 65.786163
779326909 -0.85284239 65.539017
779807678 -0.8612479 65.271027
780288447 -0.85902542 65.058891
780769216 -0.85783023 64.833542
781249985 -0.86414069 64.589897
781730754 -0.87081814 64.331055
782211523 -0.86802298 64.090088
782692292 -0.87232476 63.837509
783173061 -0.87797225 63.590157
783653830 -0.87936884 63.366875
784134599 -0.88305312 63.153767
784615368 -0.88248724 62.886986
785096137 -0.88437551 62.647869
785576906 -0.8958661 62.35685
786057675 -0.8945303 62.128769
786538444 -0.89852136 61.870155
787019213 -0.90298349 61.641026
787499982 -0.90041631 61.413769
787980751 -0.90680623 61.160023
788461520 -0.9143557 60.959774
788942289 -0.91237324 60.655365
789423058 -0.91972828 60.409943
789903827 -0.92385238 60.171883
790384596 -0.92861891 59.938339
790865365 -0.93425119 59.681236
791346134 -0.93575943 59.434929
791826903 -0.93532181 59.20871
792307672 -0.94132316 58.917835
792788441 -0.94481909 58.71019
793269210 -0.94812334 58.447598
793749979 -0.95496833 58.194012
794230748 -0.96002388 57.959789
794711517 -0.96029967 57.683586
795192286 -0.96950132 57.462513
795673055 -0.97184062 57.215294
796153824 -0.97994167 56.95945
796634593 -0.98035949 56.661522
797115362 -0.98561335 56.454575
797596131 -0.99040496 56.219799
798076900 -0.9931196 55.988312
798557669 -0.99545574 55.718296
799038438 -0.99994045 55.493725
799519207 -1.0074964 55.222889
799999976 -1.0113499 54.968987
800480745 -1.0179307 54.709713
800961514 -1.0192471 54.460716
801442283 -1.0256132 54.225105
801923052 -1.0330536 53.955467
802403821 -1.0238729 53.723133
802884590 -1.0384016 53.501793
803365359 -1.0407484 53.231785
803846128 -1.0470564 52.964565
804326897 -1.0526314 52.786743
804807666 -1.0559438 52.511124
805288435 -1.0639335 52.238182
805769204 -1.0676057 52.036816
806249973 -1.073651 51.759846
806730742 -1.0789148 51.483467
807211511 -1.0784067 51.250214
807692280 -1.0828378 51.021782
808173049 -1.0861666 50.776283
808653818 -1.0897568 50.483936
809134587 -1.092581 50.268646
809615356 -1.0984142 50.001629
810096125 -1.1015735 49.749165
810576894 -1.1104996 49.49963
811057663 -1.1103071 49.258217
811538432 -1.114081 49.068871
812019201 -1.1240556 48.812916
812499970 -1.119114 48.564304
812980739 -1.1297448 48.303936
813461508 -1.1290444 48.054371
813942277 -1.1305352 47.814346
814423046 -1.134155 47.554504
814903815 -1.1396414 47.305099
815384584 -1.1321468 47.023891
815865353 -1.1443652 46.804863
816346122 -1.1409894 46.578972
816826891 -1.1405374 46.299706
817307660 -1.1473104 46.059174
817788429 -1.1470063 45.814415
818269198 -1.1490642 45.509644
818749967 -1.1509775 45.25428
819230736 -1.1479385 45.046913
819711505 -1.1582265 44.770546
820192274 -1.1596259 44.504032
820673043 -1.1616513 44.223038
821153812 -1.1624953 43.980541
821634581 -1.1632067 43.70034
822115350 -1.1614727 43.409798
822596119 -1.1696767 43.15028
823076888 -1.1654036 42.884464
823557657 -1.1691148 42.605835
824038426 -1.1682767 42.35643
824519195 -1.1701217 42.072876
824999964 -1.1702508 41.794971
825480733 -1.1704406 41.519966
825961502 -1.1748421 41.232769
826442271 -1.1781852 40.935143
826923040 -1.1794335 40.704285
827403809 -1.1766651 40.386894
827884578 -1.1845864 40.130077
828365347 -1.1856556 39.829266
828846116 -1.1883645 39.574879
829326885 -1.1860641 39.279293
829807654 -1.1933528 39.011818
830288423 -1.1912129 38.722862
830769192 -1.1945803 38.426086
831249961 -1.1962847 38.115959
831730730 -1.2006419 37.872597
832211499 -1.1954618 37.55378
832692268 -1.1997187 37.255405
833173037 -1.1980795 36.95015
833653806 -1.2040483 36.706322
834134575 -1.2072759 36.350224
834615344 -1.2060394 36.069519
835096113 -1.2092137 35.771317
835576882 -1.2133925 35.497311
836057651 -1.2138594 35.16328
836538420 -1.2174935 34.936714
837019189 -1.215652 34.56184
837499958 -1.2192854 34.297653
837980727 -1.2213929 33.975803
838461496 -1.2232876 33.666241
838942265 -1.228282 33.366016
839423034 -1.2273479 33.086124
839903803 -1.2301993 32.789555
840384572 -1.2317823 32.455711
840865341 -1.2346793 32.13179
841346110 -1.2385918 31.811958
841826879 -1.2371695 31.493637
842307648 -1.2417753 31.244581
842788417 -1.2435193 30.882656
843269186 -1.2472742 30.577156
843749955 -1.2486881 30.252062
844230724 -1.2468523 29.949587
844711493 -1.2527784 29.606176
845192262 -1.2513928 29.302652
845673031 -1.2543707 28.976057
846153800 -1.2552986 28.645094
846634569 -1.2637422 28.316431
847115338 -1.2600621 28.028942
847596107 -1.2642939 27.718842
848076876 -1.2627672 27.350443
848557645 -1.2667997 27.015146
849038414 -1.2699445 26.695965
849519183 -1.2701807 26.357624
849999952 -1.2734866 25.999519
850480721 -1.2726746 25.717154
850961490 -1.2771446 25.381395
851442259 -1.2728832 25.01119
851923028 -1.2814629 24.664087
852403797 -1.2807496 24.332247
852884566 -1.2873943 23.997633
853365335 -1.2875576 23.650827
853846104 -1.2895073 23.307127
854326873 -1.2956928 22.940165
854807642 -1.2936964 22.56996
855288411 -1.2956513 22.241062
855769180 -1.2944968 21.883675
856249949 -1.2972059 21.512184
856730718 -1.3011566 21.159029
857211487 -1.3023137 20.786402
857692256 -1.3050078 20.426445
858173025 -1.3057939 20.070578
858653794 -1.3114733 19.710423
859134563 -1.3122646 19.349407
859615332 -1.3136894 18.953537
860096101 -1.3167933 18.631029
860576870 -1.3168645 18.222689
861057639 -1.3196863 17.827066
861538408 -1.3271053 17.488329
862019177 -1.3291802 17.124891
862499946 -1.3340871 16.716209
862980715 -1.3364869 16.34466
863461484 -1.3312891 15.978203
863942253 -1.339044 15.552742
864423022 -1.3400795 15.196007
864903791 -1.3413446 14.764483
865384560 -1.3459311 14.399404
865865329 -1.3509156 14.029737
866346098 -1.3512402 13.625264
866826867 -1.3566581 13.203547
867307636 -1.3601407 12.833811
867788405 -1.3627626 12.434978
868269174 -1.3598143 11.99785
868749943 -1.3681531 11.619243
869230712 -1.3743323 11.212132
869711481 -1.3753465 10.781724
870192250 -1.3753004 10.372595
870673019 -1.379586 9.957613
871153788 -1.3875382 9.5211287
871634557 -1.3869175 9.0890636
872115326 -1.3930126 8.691124
872596095 -1.4026177 8.2216139
873076864 -1.4004115 7.8048453
873557633 -1.4029423 7.4077926
874038402 -1.4128475 6.9734087
874519171 -1.4167216 6.527607
874999940 -1.413717 6.0735941
875480709 -1.4250947 5.6561179
875961478 -1.4291053 5.2431207
876442247 -1.4249911 4.7523017
876923016 -1.436456 4.3017573
877403785 -1.4384397 3.833389
877884554 -1.4430588 3.425194
878365323 -1.4465652 2.9469891
878846092 -1.4467762 2.4962769
879326861 -1.4562099 2.0384827
879807630 -1.4586363 1.5399112
880288399 -1.4666511 1.0978599
880769168 -1.4769276 0.57566416
881249937 -1.485144 0.15913902
881730706 -1.4827822 -0.33084542
882211475 -1.4951332 -0.82091337
882692244 -1.4945681 -1.2998009
883173013 -1.5022272 -1.7713659
883653782 -1.5045925 -2.2753751
884134551 -1.5163468 -2.7128499
884615320 -1.5185275 -3.2231274
885096089 -1.5227485 -3.7333302
885576858 -1.5288231 -4.2154598
886057627 -1.5392797 -4.7003379
886538396 -1.5439612 -5.2221217
887019165 -1.5515598 -5.729001
887499934 -1.5596229 -6.244061
887980703 -1.565585 -6.6960287
888461472 -1.5711776 -7.2524109
888942241 -1.5822592 -7.7654071
889423010 -1.5853319 -8.2705469
889903779 -1.5856915 -8.8004456
890384548 -1.5960759 -9.3419657
890865317 -1.59837 -9.8974676
891346086 -1.6086109 -10.395716
891826855 -1.6159315 -10.922768
892307624 -1.6220962 -11.501817
892788393 -1.6225716 -12.02704
893269162 -1.6376797 -12.572777
893749931 -1.642742 -13.111834
894230700 -1.6455729 -13.712662
894711469 -1.6549822 -14.253837
895192238 -1.6624718 -14.841789
895673007 -1.6695619 -15.388715
896153776 -1.6758325 -15.982749
896634545 -1.6823496 -16.519405
897115314 -1.6885318 -17.126106
897596083 -1.6975985 -17.730385
898076852 -1.7053729 -18.305834
898557621 -1.7168416 -18.897793
899038390 -1.721341 -19.502523
899519159 -1.7273097 -20.133739
899999928 -1.7469522 -20.744238
900480697 -1.7491857 -21.398926
900961466 -1.7585375 -21.957335
901442235 -1.7724051 -22.60187
901923004 -1.7772778 -23.216394
902403773 -1.7869936 -23.864483
902884542 -1.7960597 -24.516388
903365311 -1.8037977 -25.132975
903846080 -1.8175889 -25.766035
904326849 -1.821286 -26.43256
904807618 -1.8379551 -27.068125
905288387 -1.8451759 -27.733118
905769156 -1.8535711 -28.392191
906249925 -1.8669122 -29.064968
906730694 -1.8737397 -29.733135
907211463 -1.886677 -30.421345
907692232 -1.8965632 -31.073284
908173001 -1.9038447 -31.757309
908653770 -1.9162049 -32.486057
909134539 -1.9242686 -33.136517
909615308 -1.9403765 -33.883121
910096077 -1.9465623 -34.573936
910576846 -1.9542761 -35.310276
911057615 -1.964154 -35.997707
911538384 -1.9777982 -36.747353
912019153 -1.9833909 -37.492699
912499922 -1.9989271 -38.256523
912980691 -2.0104487 -38.999252
913461460 -2.0209656 -39.73349
913942229 -2.0395637 -40.514812
914422998 -2.0413585 -41.261566
914903767 -2.047991 -42.069942
915384536 -2.063061 -42.822117
915865305 -2.0809348 -43.613972
916346074 -2.0922716 -44.414333
916826843 -2.1042626 -45.207882
917307612 -2.1085238 -45.984039
917788381 -2.1253848 -46.824535
918269150 -2.1362622 -47.644646
918749919 -2.1458395 -48.474346
919230688 -2.1632798 -49.280922
919711457 -2.1763628 -50.122223
920192226 -2.1865127 -50.965889
920672995 -2.1942747 -51.78561
921153764 -2.2123699 -52.699181
921634533 -2.2255595 -53.560551
922115302 -2.2308691 -54.410679
922596071 -2.2449713 -55.306622
923076840 -2.2602098 -56.219296
923557609 -2.2702971 -57.093163
924038378 -2.2861373 -58.000214
924519147 -2.2941208 -58.953773
924999916 -2.3102789 -59.855114
925480685 -2.3187101 -60.759354
925961454 -2.336004 -61.710773
926442223 -2.3461082 -62.680088
926922992 -2.359544 -63.619156
927403761 -2.3688571 -64.5895
927884530 -2.3790107 -65.566711
928365299 -2.398917 -66.55497
928846068 -2.4020388 -67.538742
929326837 -2.4199312 -68.532898
929807606 -2.4277139 -69.535767
930288375 -2.4431489 -70.55114
930769144 -2.4608531 -71.589272
931249913 -2.4656966 -72.632629
931730682 -2.479857 -73.668007
932211451 -2.4875329 -74.723862
932692220 -2.5026541 -75.804558
933172989 -2.5164962 -76.861343
933653758 -2.5277684 -77.936104
934134527 -2.5402024 -79.052238
934615296 -2.5504427 -80.163834
935096065 -2.5647802 -81.255325
935576834 -2.5770833 -82.386757
936057603 -2.5835624 -83.517082
936538372 -2.5998054 -84.646484
937019141 -2.6108136 -85.784225
937499910 -2.6206298 -86.953918
937980679 -2.6342084 -88.103912
938461448 -2.6486204 -89.285149
938942217 -2.6550381 -90.456421
939422986 -2.6656799 -91.669319
939903755 -2.6779916 -92.875145
940384524 -2.689379 -94.102478
940865293 -2.7027669 -95.310631
941346062 -2.7100701 -96.512543
941826831 -2.723546 -97.7696
942307600 -2.7303798 -99.027878
942788369 -2.740999 -100.27415
943269138 -2.751209 -101.52519
943749907 -2.7576294 -102.78974
944230676 -2.766567 -104.0749
944711445 -2.7776244 -105.37997
945192214 -2.7861254 -106.65051
945672983 -2.7962441 -107.9747
946153752 -2.8021176 -109.24496
946634521 -2.8132684 -110.57455
947115290 -2.8207126 -111.93008
947596059 -2.8240998 -113.25583
948076828 -2.830786 -114.60777
948557597 -2.8398612 -115.92192
949038366 -2.8439181 -117.2971
949519135 -2.8512757 -118.64006
949999904 -2.8556061 -120.00751
950480673 -2.8590896 -121.37074
950961442 -2.8633618 -122.75534
951442211 -2.8685532 -124.14378
951922980 -2.8725626 -125.52514
952403749 -2.8744671 -126.94889
952884518 -2.8761899 -128.34949
953365287 -2.8795581 -129.73309
953846056 -2.8835502 -131.17285
954326825 -2.8836544 -132.56439
954807594 -2.8853955 -133.97157
955288363 -2.8826003 -135.41914
955769132 -2.8834536 -136.84804
956249901 -2.8818319 -138.28278
956730670 -2.8834331 -139.70094
957211439 -2.8821657 -141.14969
957692208 -2.8825653 -142.58528
958172977 -2.8764665 -144.04428
958653746 -2.874505 -145.47911
959134515 -2.8714364 -146.93158
959615284 -2.8705223 -148.37712
960096053 -2.8656352 -149.82639
960576822 -2.8598287 -151.28223
961057591 -2.8587682 -152.73404
961538360 -2.8551724 -154.17247
962019129 -2.8495896 -155.62486
962499898 -2.8414166 -157.06519
962980667 -2.8393152 -158.51797
963461436 -2.8282914 -159.93523
963942205 -2.8228004 -161.40088
964422974 -2.8163216 -162.84691
964903743 -2.8075695 -164.2645
965384512 -2.7978008 -165.75124
965865281 -2.789511 -167.13939
966346050 -2.7787185 -168.56546
966826819 -2.7746689 -170.00647
967307588 -2.7664814 -171.44418
967788357 -2.751848 -172.83098
968269126 -2.7433572 -174.22359
968749895 -2.7294626 -175.65337
969230664 -2.7214398 -177.07457
969711433 -2.707577 -178.47287
970192202 -2.6954384 -179.86542
970672971 -2.6868215 178.72563
971153740 -2.6732559 177.36102
971634509 -2.6633248 175.96527
972115278 -2.6535075 174.63687
972596047 -2.6418285 173.23766
973076816 -2.6230562 171.87097
973557585 -2.6102989 170.50949
974038354 -2.5959401 169.15573
974519123 -2.583477 167.84291
974999892 -2.57197 166.49071
975480661 -2.5583911 165.20934
975961430 -2.5417492 163.85231
976442199 -2.5283253 162.5473
976922968 -2.5170567 161.2435
977403737 -2.4996717 159.93732
977884506 -2.483778 158.64252
978365275 -2.4739771 157.3774
978846044 -2.4640431 156.12207
979326813 -2.4450712 154.86392
979807582 -2.4329746 153.60753
980288351 -2.4118881 152.35373
980769120 -2.3994567 151.08998
981249889 -2.3842556 149.88406
981730658 -2.3763702 148.63956
982211427 -2.3647318 147.43636
982692196 -2.3439131 146.23604
983172965 -2.3306661 145.05228
983653734 -2.3163583 143.86134
984134503 -2.3018825 142.6992
984615272 -2.2918086 141.50703
985096041 -2.2748983 140.28717
985576810 -2.2562788 139.22624
986057579 -2.2520492 138.06613
986538348 -2.2366948 136.90257
987019117 -2.2196221 135.81784
987499886 -2.2083952 134.64478
987980655 -2.2029517 133.5692
988461424 -2.1806922 132.47946
988942193 -2.1675017 131.39845
989422962 -2.1557515 130.2952
989903731 -2.1411147 129.24796
990384500 -2.1300125 128.18784
990865269 -2.1182482 127.1137
991346038 -2.1019003 126.06564
991826807 -2.0958493 125.0443
992307576 -2.0740662 124.0396
992788345 -2.0668716 122.96779
993269114 -2.0575259 122.01185
993749883 -2.0428734 120.98132
994230652 -2.0259428 119.98978
994711421 -2.0183804 118.95729
995192190 -2.010891 117.98382
995672959 -1.996819 117.05318
996153728 -1.9864192 116.07104
996634497 -1.9761029 115.07394
997115266 -1.9628314 114.14591
997596035 -1.9518248 113.22462
998076804 -1.9414046 112.33011
998557573 -1.9304645 111.40998
999038342 -1.920051 110.48379
999519111 -1.9107077 109.59049
999999880 -1.9030247 108.67526
1000480649 -1.884794 107.77808
1000961418 -1.8801608 106.88889
1001442187 -1.867453 106.04244
1001922956 -1.8586092 105.14074
1002403725 -1.8476077 104.30131
1002884494 -1.8442863 103.43468
1003365263 -1.8336985 102.57156
1003846032 -1.8254398 101.73954
1004326801 -1.8102913 100.8805
1004807570 -1.7996778 100.05761
1005288339 -1.7996563 99.260338
1005769108 -1.7886314 98.394699
1006249877 -1.7775753 97.605301
1006730646 -1.7637767 96.789482
1007211415 -1.7593821 95.992264
1007692184 -1.7524242 95.210831
1008172953 -1.7431972 94.433594
1008653722 -1.7331023 93.663254
1009134491 -1.7260863 92.905739
1009615260 -1.716858 92.141029
1010096029 -1.7093529 91.36853
1010576798 -1.7029887 90.606529
1011057567 -1.6967323 89.837845
1011538336 -1.6884948 89.133263
1012019105 -1.680202 88.41803
1012499874 -1.6713051 87.651474
1012980643 -1.6715313 86.91066
1013461412 -1.6552622 86.230568
1013942181 -1.6500467 85.490662
1014422950 -1.6440879 84.799042
1014903719 -1.6344781 84.080971
1015384488 -1.6316379 83.345901
1015865257 -1.6262429 82.69828
1016346026 -1.6158561 81.958519
1016826795 -1.6112758 81.30983
1017307564 -1.6070275 80.614166
1017788333 -1.5967746 79.959175
1018269102 -1.5921013 79.255959
1018749871 -1.5864713 78.596558
1019230640 -1.5790817 77.925339
1019711409 -1.5722042 77.282349
1020192178 -1.571417 76.622314
1020672947 -1.558104 75.960625
1021153716 -1.5542485 75.310081
1021634485 -1.5547487 74.692032
1022115254 -1.5419862 74.060394
1022596023 -1.5413892 73.410461
1023076792 -1.5362132 72.793015
1023557561 -1.5338802 72.197311
1024038330 -1.527931 71.539665
1024519099 -1.5209459 70.923622
1024999868 -1.5208857 70.314102
1025480637 -1.5159093 69.712288
1025961406 -1.5047591 69.094093
1026442175 -1.5012611 68.49221
1026922944 -1.499765 67.880157
1027403713 -1.4981617 67.325554
1027884482 -1.4888577 66.719124
1028365251 -1.4854126 66.16256
1028846020 -1.480425 65.558945
1029326789 -1.4786251 64.985527
1029807558 -1.4724995 64.380516
1030288327 -1.4709066 63.84576
1030769096 -1.4671087 63.270077
1031249865 -1.4583031 62.711937
1031730634 -1.4545158 62.135345
1032211403 -1.4510161 61.586567
1032692172 -1.4537126 61.029278
1033172941 -1.4457089 60.483288
1033653710 -1.4455407 59.941528
1034134479 -1.4382206 59.42762
1034615248 -1.4299917 58.873348
1035096017 -1.4310421 58.316395
1035576786 -1.4272473 57.771072
1036057555 -1.4220535 57.257221
1036538324 -1.4220645 56.691978
1037019093 -1.4214742 56.16246
1037499862 -1.4135296 55.68856
1037980631 -1.4089783 55.148598
1038461400 -1.4077075 54.640533
1038942169 -1.4024686 54.126713
1039422938 -1.3985618 53.571041
1039903707 -1.3924311 53.043427
1040384476 -1.3945454 52.571678
1040865245 -1.3851484 52.059841
1041346014 -1.3798581 51.557037
1041826783 -1.386126 51.070847
1042307552 -1.3805189 50.54557
1042788321 -1.3753576 50.05201
1043269090 -1.3770247 49.569229
1043749859 -1.3689144 49.071297
1044230628 -1.3725264 48.596916
1044711397 -1.3655052 48.091579
1045192166 -1.3645308 47.602589
1045672935 -1.3633833 47.114117
1046153704 -1.3633986 46.628582
1046634473 -1.3576796 46.14481
1047115242 -1.3516201 45.699532
1047596011 -1.3455591 45.193687
1048076780 -1.3479089 44.758667
1048557549 -1.3450912 44.28294
1049038318 -1.3435305 43.766022
1049519087 -1.3480476 43.31683
1049999856 -1.3419753 42.858486
1050480625 -1.3392081 42.414185
1050961394 -1.3321332 41.937653
1051442163 -1.3302685 41.524773
1051922932 -1.3312588 41.037674
1052403701 -1.3281163 40.588428
1052884470 -1.3259863 40.13522
